<Qucs Dataset 0.0.19>
<indep acfrequency 2>
  +5.00000000000000000000e+001
  +5.00000000000000000000e+001
</indep>
<dep Vac1.v acfrequency>
  -8.88871349688202841207e+005-j3.94842917959417309248e+003
  -8.88871349688202841207e+005-j3.94842917959417309248e+003
</dep>
<dep Vac2.v acfrequency>
  +1.61963190184049099507e+000
  +1.61963190184049099507e+000
</dep>
<dep Iac1.i acfrequency>
  -1.99995005464732031442e+002-j9.99440897808425265936e-001
  -1.99995005464732031442e+002-j9.99440897808425265936e-001
</dep>
<dep V1.i acfrequency>
  -4.90797546012269967491e-004
  -4.90797546012269967491e-004
</dep>
<dep V2.i acfrequency>
  -2.66666666666666701130e-003
  -2.66666666666666701130e-003
</dep>
<dep Iac2.i acfrequency>
  +2.66666666666666701130e-003
  +2.66666666666666701130e-003
</dep>
<dep _net13.v acfrequency>
  +0.00000000000000000000e+000
  +0.00000000000000000000e+000
</dep>
<dep _net10.v acfrequency>
  +0.00000000000000000000e+000
  +0.00000000000000000000e+000
</dep>
<dep _net12.v acfrequency>
  -8.00000000000000000000e+000
  -8.00000000000000000000e+000
</dep>
<dep _net11.v acfrequency>
  -5.33333333333333303727e+000
  -5.33333333333333303727e+000
</dep>
<dep _net6.v acfrequency>
  +0.00000000000000000000e+000
  +0.00000000000000000000e+000
</dep>
<dep _net8.v acfrequency>
  +1.61963190184049099507e+000
  +1.61963190184049099507e+000
</dep>
<dep _net9.v acfrequency>
  -6.38036809815950878289e+000
  -6.38036809815950878289e+000
</dep>
<dep _net7.v acfrequency>
  -5.88957055214723901315e+000
  -5.88957055214723901315e+000
</dep>
<dep _net5.v acfrequency>
  +0.00000000000000000000e+000
  +0.00000000000000000000e+000
</dep>
<dep _net3.v acfrequency>
  +0.00000000000000000000e+000
  +0.00000000000000000000e+000
</dep>
<dep _net4.v acfrequency>
  -1.99781410718930857229e+002+j3.99776359123370129964e+004
  -1.99781410718930857229e+002+j3.99776359123370129964e+004
</dep>
<dep _net2.v acfrequency>
  -8.88871349688202841207e+005-j3.94842917959417309248e+003
  -8.88871349688202841207e+005-j3.94842917959417309248e+003
</dep>
<dep _net0.v acfrequency>
  +0.00000000000000000000e+000
  +0.00000000000000000000e+000
</dep>
<dep _net1.v acfrequency>
  -8.89029202494377386756e+005+j3.15874334367439769267e+004
  -8.89029202494377386756e+005+j3.15874334367439769267e+004
</dep>
