<Qucs Dataset 0.0.19>
<indep time 30>
  +0.00000000000000000000e+000
  +6.89655172413793017475e-008
  +1.37931034482758603495e-007
  +2.06896551724137931712e-007
  +2.75862068965517206990e-007
  +3.44827586206896561677e-007
  +4.13793103448275863425e-007
  +4.82758620689655165172e-007
  +5.51724137931034413980e-007
  +6.20689655172413768667e-007
  +6.89655172413793123354e-007
  +7.58620689655172372162e-007
  +8.27586206896551726849e-007
  +8.96551724137930975657e-007
  +9.65517241379310330344e-007
  +1.03448275862068957915e-006
  +1.10344827586206882796e-006
  +1.17241379310344828853e-006
  +1.24137931034482753733e-006
  +1.31034482758620678614e-006
  +1.37931034482758624671e-006
  +1.44827586206896549552e-006
  +1.51724137931034474432e-006
  +1.58620689655172399313e-006
  +1.65517241379310345370e-006
  +1.72413793103448270251e-006
  +1.79310344827586195131e-006
  +1.86206896551724120012e-006
  +1.93103448275862066069e-006
  +1.99999999999999990950e-006
</indep>
<dep Pr2.Vt time>
  +1.32725106816167226498e-006
  +1.32722869139456634002e-006
  +1.32719860523877741798e-006
  +1.32720349199644260807e-006
  +1.32721302037452915101e-006
  +1.32720871626190728421e-006
  +1.32722479939673121407e-006
  +1.32720235157535171311e-006
  +1.32720761847338053485e-006
  +1.32720158596555393160e-006
  +1.32721537760005503515e-006
  +1.32721217305231675709e-006
  +1.32721032031213326263e-006
  +1.32719478429521586804e-006
  +1.32720348133830157167e-006
  +1.32720125556318180315e-006
  +1.32719338630238326004e-006
  +1.32719822154570010753e-006
  +1.32718819756405537191e-006
  +1.32718766820971723064e-006
  +1.32719367229583440349e-006
  +1.32720539269826076634e-006
  +1.32719261891622863914e-006
  +1.32719218193244614667e-006
  +1.32719938150671623589e-006
  +1.32719964796024214593e-006
  +1.32719939394121411169e-006
  +1.32720799328467364830e-006
  +1.32719967993466525513e-006
  +1.32720306744715799141e-006
</dep>
<dep V1.It time>
  -1.44725099446062000532e-010
  -1.30170946515006776915e-010
  -1.44719853218278828532e-010
  -1.44720341784508020972e-010
  -1.84347716466633820540e-010
  -1.84347286105286713983e-010
  -1.84348894424121178160e-010
  -1.84346649527556006678e-010
  -1.84347176356298601094e-010
  -1.84346572998319189449e-010
  -1.84347952273196038619e-010
  -1.84347631718972228980e-010
  -1.84347446419454397390e-010
  -1.84345892766753875424e-010
  -1.44720340812552939291e-010
  -1.05093696335842537564e-010
  -1.05092909378664687193e-010
  -1.05093392897980089199e-010
  -1.05092390599646754523e-010
  -1.05092337632403858130e-010
  -1.05092938023821546705e-010
  -1.05094110112757296451e-010
  -1.05092832760360719294e-010
  -1.05092788986724213215e-010
  -1.05093508951994106659e-010
  -1.05093535630217316133e-010
  -1.05093510290951234952e-010
  -1.05094370180994961540e-010
  -1.05093538864464004132e-010
  -1.05093877583477065584e-010
</dep>
<dep Pr1.It time>
  +1.32725106823348125449e-010
  +1.32722869120659779488e-010
  +1.32719860595564979298e-010
  +1.32720349161794171738e-010
  +1.32721302041914065870e-010
  +1.32720871680567191958e-010
  +1.32722479999401423490e-010
  +1.32720235102836252008e-010
  +1.32720761931578613781e-010
  +1.32720158573599667424e-010
  +1.32721537848476516595e-010
  +1.32721217294252241666e-010
  +1.32721031994734875365e-010
  +1.32719478342033888110e-010
  +1.32720348189839090057e-010
  +1.32720125515131995901e-010
  +1.32719338557954132606e-010
  +1.32719822077268591109e-010
  +1.32718819778936212861e-010
  +1.32718766811693316467e-010
  +1.32719367203110048615e-010
  +1.32720539292046754788e-010
  +1.32719261939650177631e-010
  +1.32719218166013658627e-010
  +1.32719938131282621493e-010
  +1.32719964809506774470e-010
  +1.32719939470240680364e-010
  +1.32720799360284394028e-010
  +1.32719968043753449544e-010
  +1.32720306762766523922e-010
</dep>
<dep _net2.Vt time>
  +1.13568664460540907788e-005
  +1.13568574222716082924e-005
  +1.13568501077770155284e-005
  +1.13568393254336881510e-005
  +1.13568289140011789733e-005
  +1.13568210278921226153e-005
  +1.13568114581715928909e-005
  +1.13568073170844987532e-005
  +1.13568001716958427895e-005
  +1.13567950151920448880e-005
  +1.13567879349741123564e-005
  +1.13567835039092799454e-005
  +1.13567792422370948230e-005
  +1.13567770439471150729e-005
  +1.13567721381630146567e-005
  +1.13567689536937265252e-005
  +1.13567666538461396433e-005
  +1.13567630505859052406e-005
  +1.13567615497567015544e-005
  +1.13567590432028212195e-005
  +1.13567560886013749715e-005
  +1.13567526387551669109e-005
  +1.13567522838060459394e-005
  +1.13567506046049613211e-005
  +1.13567481502900575449e-005
  +1.13567466968347679357e-005
  +1.13567454639382451606e-005
  +1.13567432189577341271e-005
  +1.13567432532040266558e-005
  +1.13567417822504763123e-005
</dep>
<dep _net3.Vt time>
  +1.19999986727489318383e+001
  +1.19999986727713086054e+001
  +1.19999986728013947612e+001
  +1.19999986727965080036e+001
  +1.19999986727869796255e+001
  +1.19999986727912837381e+001
  +1.19999986727752006033e+001
  +1.19999986727976484246e+001
  +1.19999986727923815266e+001
  +1.19999986727984140344e+001
  +1.19999986727846223999e+001
  +1.19999986727878269477e+001
  +1.19999986727896796879e+001
  +1.19999986728052157048e+001
  +1.19999986727965186617e+001
  +1.19999986727987444368e+001
  +1.19999986728066136976e+001
  +1.19999986728017784543e+001
  +1.19999986728118024359e+001
  +1.19999986728123317903e+001
  +1.19999986728063277042e+001
  +1.19999986727946073017e+001
  +1.19999986728073810838e+001
  +1.19999986728078180676e+001
  +1.19999986728006184933e+001
  +1.19999986728003520398e+001
  +1.19999986728006060588e+001
  +1.19999986727920067153e+001
  +1.19999986728003200653e+001
  +1.19999986727969325528e+001
</dep>
<dep _net0.Vt time>
  +1.20000000000000000000e+001
  +1.20000000000000000000e+001
  +1.20000000000000000000e+001
  +1.20000000000000000000e+001
  +1.20000000000000000000e+001
  +1.20000000000000000000e+001
  +1.20000000000000000000e+001
  +1.20000000000000000000e+001
  +1.20000000000000000000e+001
  +1.20000000000000000000e+001
  +1.20000000000000000000e+001
  +1.20000000000000000000e+001
  +1.20000000000000000000e+001
  +1.20000000000000000000e+001
  +1.20000000000000000000e+001
  +1.20000000000000000000e+001
  +1.20000000000000000000e+001
  +1.20000000000000000000e+001
  +1.20000000000000000000e+001
  +1.20000000000000000000e+001
  +1.20000000000000000000e+001
  +1.20000000000000000000e+001
  +1.20000000000000000000e+001
  +1.20000000000000000000e+001
  +1.20000000000000000000e+001
  +1.20000000000000000000e+001
  +1.20000000000000000000e+001
  +1.20000000000000000000e+001
  +1.20000000000000000000e+001
  +1.20000000000000000000e+001
</dep>
<dep _net4.Vt time>
  +1.20000000000000000000e+001
  +1.20000000000000000000e+001
  +1.20000000000000000000e+001
  +1.20000000000000000000e+001
  +1.20000000000000000000e+001
  +1.20000000000000000000e+001
  +1.20000000000000000000e+001
  +1.20000000000000000000e+001
  +1.20000000000000000000e+001
  +1.20000000000000000000e+001
  +1.20000000000000000000e+001
  +1.20000000000000000000e+001
  +1.20000000000000000000e+001
  +1.20000000000000000000e+001
  +1.20000000000000000000e+001
  +1.20000000000000000000e+001
  +1.20000000000000000000e+001
  +1.20000000000000000000e+001
  +1.20000000000000000000e+001
  +1.20000000000000000000e+001
  +1.20000000000000000000e+001
  +1.20000000000000000000e+001
  +1.20000000000000000000e+001
  +1.20000000000000000000e+001
  +1.20000000000000000000e+001
  +1.20000000000000000000e+001
  +1.20000000000000000000e+001
  +1.20000000000000000000e+001
  +1.20000000000000000000e+001
  +1.20000000000000000000e+001
</dep>
<dep _net1.Vt time>
  +7.37728614246282599635e-006
  +7.37728614246277940953e-006
  +7.37728614246267437745e-006
  +7.37728614246246854844e-006
  +7.37728614246215091109e-006
  +7.37728614246174433527e-006
  +7.37728614246123526847e-006
  +7.37728614246065335684e-006
  +7.37728614246002316432e-006
  +7.37728614245932351511e-006
  +7.37728614245856203249e-006
  +7.37728614245774041053e-006
  +7.37728614245687728396e-006
  +7.37728614245597265277e-006
  +7.37728614245502905807e-006
  +7.37728614245404480578e-006
  +7.37728614245304191877e-006
  +7.37728614245201023264e-006
  +7.37728614245094635926e-006
  +7.37728614244986046302e-006
  +7.37728614244873390920e-006
  +7.37728614244757855626e-006
  +7.37728614244641896816e-006
  +7.37728614244523566313e-006
  +7.37728614244403372338e-006
  +7.37728614244281145484e-006
  +7.37728614244157817486e-006
  +7.37728614244033134237e-006
  +7.37728614243906672218e-006
  +7.37728614243780803122e-006
</dep>
<indep Pr2.V 1>
  +1.32723600643203099025e-006
</indep>
<indep V1.I 1>
  -1.44723593273174218067e-010
</indep>
<indep Pr1.I 1>
  +1.32723600650460368833e-010
</indep>
<indep _net2.V 1>
  +1.13568664475830767281e-005
</indep>
<indep _net3.V 1>
  +1.19999986727639935680e+001
</indep>
<indep _net0.V 1>
  +1.20000000000000000000e+001
</indep>
<indep _net4.V 1>
  +1.20000000000000000000e+001
</indep>
<indep _net1.V 1>
  +7.37728614246282853744e-006
</indep>
