<Qucs Dataset 0.0.19>
<indep time 20>
  +0.00000000000000000000e+000
  +1.57894736842105258242e-006
  +3.15789473684210516484e-006
  +4.73684210526315774726e-006
  +6.31578947368421032968e-006
  +7.89473684210526291209e-006
  +9.47368421052631549451e-006
  +1.10526315789473680769e-005
  +1.26315789473684206594e-005
  +1.42105263157894732418e-005
  +1.57894736842105258242e-005
  +1.73684210526315767125e-005
  +1.89473684210526309890e-005
  +2.05263157894736818774e-005
  +2.21052631578947361539e-005
  +2.36842105263157870422e-005
  +2.52631578947368413187e-005
  +2.68421052631578922071e-005
  +2.84210526315789464835e-005
  +2.99999999999999973719e-005
</indep>
<dep Pr1.Vt time>
  +1.00000000000000000000e+001
  +1.00000000000000000000e+001
  +1.00000000000000000000e+001
  +1.00000000000000000000e+001
  +9.99998426213837987575e+000
  +9.99996537673702334814e+000
  +9.99994649137132718408e+000
  +9.99992760604130204172e+000
  +9.99990872074694259197e+000
  +9.99988983548825594028e+000
  +9.99987095026522787578e+000
  +9.99985206507786372754e+000
  +9.99983317992616349557e+000
  +9.99981429481012717986e+000
  +9.99979540972976543856e+000
  +9.99977652468508004802e+000
  +9.99975763967605679738e+000
  +9.99973875470268858123e+000
  +9.99971986976498250499e+000
  +9.99970098486294034501e+000
</dep>
<dep V1.It time>
  -1.19607662782073020935e-003
  -1.19607841770630329847e-003
  -1.19607842771074501798e-003
  -1.19607842952973442152e-003
  -1.57378616201242469083e-017
  -3.46232629766518473529e-017
  -5.35086286728158952696e-017
  -7.23939586979582604500e-017
  -9.12792530574079941315e-017
  -1.10164511744059678230e-016
  -1.29049734772124185891e-016
  -1.47934922136272404250e-016
  -1.66820073836504370282e-016
  -1.85705189872820083989e-016
  -2.04590270234561368939e-016
  -2.23475314919951907589e-016
  -2.42360323943202536109e-016
  -2.61245297311418672583e-016
  -2.80130235017494898926e-016
  -2.99015137059654897596e-016
</dep>
<dep _net1.Vt time>
  +1.00000000000000000000e+001
  +1.00000000000000000000e+001
  +1.00000000000000000000e+001
  +1.00000000000000000000e+001
  +9.99998426213837987575e+000
  +9.99996537673702334814e+000
  +9.99994649137132718408e+000
  +9.99992760604130204172e+000
  +9.99990872074694259197e+000
  +9.99988983548825594028e+000
  +9.99987095026522787578e+000
  +9.99985206507786372754e+000
  +9.99983317992616349557e+000
  +9.99981429481012717986e+000
  +9.99979540972976543856e+000
  +9.99977652468508004802e+000
  +9.99975763967605679738e+000
  +9.99973875470268858123e+000
  +9.99971986976498250499e+000
  +9.99970098486294034501e+000
</dep>
<dep _net2.Vt time>
  +1.00000000000000000000e+001
  +1.00000000000000000000e+001
  +1.00000000000000000000e+001
  +1.00000000000000000000e+001
  +1.00000000000000000000e+001
  +1.00000000000000000000e+001
  +1.00000000000000000000e+001
  +1.00000000000000000000e+001
  +1.00000000000000000000e+001
  +1.00000000000000000000e+001
  +1.00000000000000000000e+001
  +1.00000000000000000000e+001
  +1.00000000000000000000e+001
  +1.00000000000000000000e+001
  +1.00000000000000000000e+001
  +1.00000000000000000000e+001
  +1.00000000000000000000e+001
  +1.00000000000000000000e+001
  +1.00000000000000000000e+001
  +1.00000000000000000000e+001
</dep>
<dep _net0.Vt time>
  +9.80392156862744990065e+000
  +9.80392156862744990065e+000
  +9.80392156862744990065e+000
  +9.80392156862744990065e+000
  +9.80390613935135313284e+000
  +9.80388762425198301287e+000
  +9.80386910918757514821e+000
  +9.80385059415813842065e+000
  +9.80383207916366927748e+000
  +9.80381356420417127140e+000
  +9.80379504927963552063e+000
  +9.80377653439006202518e+000
  +9.80375801953545433776e+000
  +9.80373950471581068200e+000
  +9.80372098993114171606e+000
  +9.80370247518145099264e+000
  +9.80368396046672252453e+000
  +9.80366544578694920631e+000
  +9.80364693114213991976e+000
  +9.80362841653229466488e+000
</dep>
