<Qucs Dataset 0.0.19>
<indep time 100>
  +0.00000000000000000000e+000
  +2.02020202020202020027e-004
  +4.04040404040404040054e-004
  +6.06060606060606060080e-004
  +8.08080808080808080107e-004
  +1.01010101010101010013e-003
  +1.21212121212121212016e-003
  +1.41414141414141414019e-003
  +1.61616161616161616021e-003
  +1.81818181818181818024e-003
  +2.02020202020202020027e-003
  +2.22222222222222222029e-003
  +2.42424242424242424032e-003
  +2.62626262626262626035e-003
  +2.82828282828282828038e-003
  +3.03030303030303030040e-003
  +3.23232323232323232043e-003
  +3.43434343434343434046e-003
  +3.63636363636363636048e-003
  +3.83838383838383838051e-003
  +4.04040404040404040054e-003
  +4.24242424242424285424e-003
  +4.44444444444444444059e-003
  +4.64646464646464689430e-003
  +4.84848484848484848064e-003
  +5.05050505050505093435e-003
  +5.25252525252525252070e-003
  +5.45454545454545497440e-003
  +5.65656565656565656075e-003
  +5.85858585858585901446e-003
  +6.06060606060606060080e-003
  +6.26262626262626305451e-003
  +6.46464646464646464086e-003
  +6.66666666666666709457e-003
  +6.86868686868686868091e-003
  +7.07070707070707113462e-003
  +7.27272727272727272096e-003
  +7.47474747474747517467e-003
  +7.67676767676767676102e-003
  +7.87878787878787921473e-003
  +8.08080808080808080107e-003
  +8.28282828282828238742e-003
  +8.48484848484848570849e-003
  +8.68686868686868729483e-003
  +8.88888888888888888118e-003
  +9.09090909090909046752e-003
  +9.29292929292929378859e-003
  +9.49494949494949537494e-003
  +9.69696969696969696129e-003
  +9.89898989898989854763e-003
  +1.01010101010101018687e-002
  +1.03030303030303034550e-002
  +1.05050505050505050414e-002
  +1.07070707070707066277e-002
  +1.09090909090909099488e-002
  +1.11111111111111115352e-002
  +1.13131313131313131215e-002
  +1.15151515151515147078e-002
  +1.17171717171717180289e-002
  +1.19191919191919196153e-002
  +1.21212121212121212016e-002
  +1.23232323232323227880e-002
  +1.25252525252525261090e-002
  +1.27272727272727276954e-002
  +1.29292929292929292817e-002
  +1.31313131313131308681e-002
  +1.33333333333333341891e-002
  +1.35353535353535357755e-002
  +1.37373737373737373618e-002
  +1.39393939393939389482e-002
  +1.41414141414141422692e-002
  +1.43434343434343438556e-002
  +1.45454545454545454419e-002
  +1.47474747474747470283e-002
  +1.49494949494949503493e-002
  +1.51515151515151519357e-002
  +1.53535353535353535220e-002
  +1.55555555555555551084e-002
  +1.57575757575757584295e-002
  +1.59595959595959582811e-002
  +1.61616161616161616021e-002
  +1.63636363636363649232e-002
  +1.65656565656565647748e-002
  +1.67676767676767680959e-002
  +1.69696969696969714170e-002
  +1.71717171717171712686e-002
  +1.73737373737373745897e-002
  +1.75757575757575744413e-002
  +1.77777777777777777624e-002
  +1.79797979797979810834e-002
  +1.81818181818181809350e-002
  +1.83838383838383842561e-002
  +1.85858585858585875772e-002
  +1.87878787878787874288e-002
  +1.89898989898989907499e-002
  +1.91919191919191906015e-002
  +1.93939393939393939226e-002
  +1.95959595959595972436e-002
  +1.97979797979797970953e-002
  +2.00000000000000004163e-002
</indep>
<dep Pr1.Vt time>
  +3.61803401327858686898e+000
  +3.61803401327370677265e+000
  +3.61803401327533746823e+000
  +3.61803401327370632856e+000
  +3.61803401327533791232e+000
  +3.61803401327370632856e+000
  +3.61803401327533791232e+000
  +3.61803401327370632856e+000
  +3.61803401327533791232e+000
  +3.61803401327370632856e+000
  +3.61803401327533791232e+000
  +3.61803401327370632856e+000
  +3.61803401327533702414e+000
  +3.61803401327370677265e+000
  +3.61803401327533702414e+000
  +3.61803401327370677265e+000
  +3.61803401327533702414e+000
  +3.61803401327370677265e+000
  +3.61803401327533702414e+000
  +3.61803401327370677265e+000
  +3.61803401327533702414e+000
  +3.61803401327370677265e+000
  +3.61803401327533702414e+000
  +3.61803401327370677265e+000
  +3.61803401327533746823e+000
  +3.61803401327370721674e+000
  +3.61803401327533746823e+000
  +3.61803401327370721674e+000
  +3.61803401327533746823e+000
  +3.61803401327370721674e+000
  +3.61803401327533746823e+000
  +3.61803401327370721674e+000
  +3.61803401327533746823e+000
  +3.61803401327370721674e+000
  +3.61803401327533746823e+000
  +3.61803401327370721674e+000
  +3.61803401327533746823e+000
  +3.61803401327370721674e+000
  +3.61803401327533702414e+000
  +3.61803401327370632856e+000
  +3.61803401327533746823e+000
  +3.61803401327370721674e+000
  +3.61803401327533702414e+000
  +3.61803401327370721674e+000
  +3.61803401327533791232e+000
  +3.61803401327370721674e+000
  +3.61803401327533746823e+000
  +3.61803401327370721674e+000
  +3.61803401327533702414e+000
  +3.61803401327370721674e+000
  +3.61803401327533702414e+000
  +3.61803401327370721674e+000
  +3.61803401327533702414e+000
  +3.61803401327370721674e+000
  +3.61803401327533702414e+000
  +3.61803401327370721674e+000
  +3.61803401327533702414e+000
  +3.61803401327370721674e+000
  +3.61803401327533702414e+000
  +3.61803401327370721674e+000
  +3.61803401327533702414e+000
  +3.61803401327370721674e+000
  +3.61803401327533702414e+000
  +3.61803401327370721674e+000
  +3.61803401327533702414e+000
  +3.61803401327370721674e+000
  +3.61803401327533702414e+000
  +3.61803401327370721674e+000
  +3.61803401327533702414e+000
  +3.61803401327370721674e+000
  +3.61803401327533702414e+000
  +3.61803401327370721674e+000
  +3.61803401327533702414e+000
  +3.61803401327370721674e+000
  +3.61803401327533702414e+000
  +3.61803401327370721674e+000
  +3.61803401327533702414e+000
  +3.61803401327370721674e+000
  +3.61803401327533702414e+000
  +3.61803401327370721674e+000
  +3.61803401327533702414e+000
  +3.61803401327370721674e+000
  +3.61803401327533702414e+000
  +3.61803401327370721674e+000
  +3.61803401327533702414e+000
  +3.61803401327370721674e+000
  +3.61803401327533702414e+000
  +3.61803401327370721674e+000
  +3.61803401327533702414e+000
  +3.61803401327370721674e+000
  +3.61803401327533702414e+000
  +3.61803401327370721674e+000
  +3.61803401327533702414e+000
  +3.61803401327370721674e+000
  +3.61803401327533702414e+000
  +3.61803401327370721674e+000
  +3.61803401327533613596e+000
  +3.61803401327370721674e+000
  +3.61803401327533613596e+000
  +3.61803401327370721674e+000
</dep>
<dep V1.It time>
  -3.61803401327858713981e-005
  -3.61803401327370687478e-005
  -3.61803401327533724380e-005
  -3.61803401327370687478e-005
  -3.61803401327533859905e-005
  -3.61803401327370687478e-005
  -3.61803401327533859905e-005
  -3.61803401327370687478e-005
  -3.61803401327533859905e-005
  -3.61803401327370687478e-005
  -3.61803401327533859905e-005
  -3.61803401327370687478e-005
  -3.61803401327533724380e-005
  -3.61803401327370687478e-005
  -3.61803401327533724380e-005
  -3.61803401327370687478e-005
  -3.61803401327533724380e-005
  -3.61803401327370687478e-005
  -3.61803401327533724380e-005
  -3.61803401327370687478e-005
  -3.61803401327533724380e-005
  -3.61803401327370687478e-005
  -3.61803401327533724380e-005
  -3.61803401327370687478e-005
  -3.61803401327533792143e-005
  -3.61803401327370755241e-005
  -3.61803401327533792143e-005
  -3.61803401327370755241e-005
  -3.61803401327533792143e-005
  -3.61803401327370755241e-005
  -3.61803401327533792143e-005
  -3.61803401327370755241e-005
  -3.61803401327533792143e-005
  -3.61803401327370755241e-005
  -3.61803401327533792143e-005
  -3.61803401327370755241e-005
  -3.61803401327533792143e-005
  -3.61803401327370755241e-005
  -3.61803401327533724380e-005
  -3.61803401327370687478e-005
  -3.61803401327533792143e-005
  -3.61803401327370755241e-005
  -3.61803401327533724380e-005
  -3.61803401327370755241e-005
  -3.61803401327533792143e-005
  -3.61803401327370823004e-005
  -3.61803401327533792143e-005
  -3.61803401327370823004e-005
  -3.61803401327533724380e-005
  -3.61803401327370755241e-005
  -3.61803401327533792143e-005
  -3.61803401327370823004e-005
  -3.61803401327533724380e-005
  -3.61803401327370755241e-005
  -3.61803401327533792143e-005
  -3.61803401327370823004e-005
  -3.61803401327533724380e-005
  -3.61803401327370755241e-005
  -3.61803401327533792143e-005
  -3.61803401327370823004e-005
  -3.61803401327533724380e-005
  -3.61803401327370755241e-005
  -3.61803401327533792143e-005
  -3.61803401327370823004e-005
  -3.61803401327533724380e-005
  -3.61803401327370755241e-005
  -3.61803401327533792143e-005
  -3.61803401327370823004e-005
  -3.61803401327533724380e-005
  -3.61803401327370755241e-005
  -3.61803401327533792143e-005
  -3.61803401327370823004e-005
  -3.61803401327533724380e-005
  -3.61803401327370755241e-005
  -3.61803401327533792143e-005
  -3.61803401327370823004e-005
  -3.61803401327533724380e-005
  -3.61803401327370755241e-005
  -3.61803401327533792143e-005
  -3.61803401327370823004e-005
  -3.61803401327533724380e-005
  -3.61803401327370755241e-005
  -3.61803401327533792143e-005
  -3.61803401327370823004e-005
  -3.61803401327533724380e-005
  -3.61803401327370755241e-005
  -3.61803401327533792143e-005
  -3.61803401327370823004e-005
  -3.61803401327533724380e-005
  -3.61803401327370755241e-005
  -3.61803401327533792143e-005
  -3.61803401327370823004e-005
  -3.61803401327533724380e-005
  -3.61803401327370755241e-005
  -3.61803401327533792143e-005
  -3.61803401327370823004e-005
  -3.61803401327533656617e-005
  -3.61803401327370823004e-005
  -3.61803401327533656617e-005
  -3.61803401327370823004e-005
</dep>
<dep V3.It time>
  +9.08731085626244998587e-017
  -1.82323844658163959418e-017
  +1.82323690659893485793e-017
  -1.82322079070801324130e-017
  +1.82320468379906189151e-017
  -1.82318857437585306460e-017
  +1.82317246511420295108e-017
  -1.82315636603075178109e-017
  +1.82314025676910166757e-017
  -1.82312414734589284066e-017
  +1.82310804842400038405e-017
  -1.82309192991311392900e-017
  +1.82307583033488919925e-017
  -1.82305973178660126735e-017
  +1.82304362198978791573e-017
  -1.82302751310174232693e-017
  +1.82301140330492897530e-017
  -1.82299530475664104341e-017
  +1.82297918462007003488e-017
  -1.82296308607178210298e-017
  +1.82294698411056635074e-017
  -1.82293086989108322009e-017
  +1.82291476700090486586e-017
  -1.82289865120622427966e-017
  +1.82288256422957919427e-017
  -1.82286647002318168472e-017
  +1.82285037656399322458e-017
  -1.82283428235759571503e-017
  +1.82281818889840725489e-017
  -1.82280209469200974534e-017
  +1.82278601157257894212e-017
  -1.82276990702642377565e-017
  +1.82275382390699297243e-017
  -1.82273771936083780596e-017
  +1.82272163624140700274e-017
  -1.82270553169525183627e-017
  +1.82268944857582103305e-017
  -1.82267335860024233037e-017
  +1.82265725533645945143e-017
  -1.82264115035611524273e-017
  +1.82262505458461769721e-017
  -1.82260898718686919068e-017
  +1.82259290468338098226e-017
  -1.82257679247328434939e-017
  +1.82256068155565742363e-017
  -1.82254461450122118305e-017
  +1.82252851194425767519e-017
  -1.82251242964271785850e-017
  +1.82249633595128874787e-017
  -1.82248024112894864352e-017
  +1.82246415153707188514e-017
  -1.82244807499106123295e-017
  +1.82243197095987446541e-017
  -1.82241587613753436105e-017
  +1.82239978654565760268e-017
  -1.82238370999964695048e-017
  +1.82236760596846018294e-017
  -1.82235151114612007859e-017
  +1.82233543189400097712e-017
  -1.82231934500823266802e-017
  +1.82230324097704590048e-017
  -1.82228714615470579612e-017
  +1.82227105656282903775e-017
  -1.82225498001681838555e-017
  +1.82223887598563161801e-017
  -1.82222279150304917057e-017
  +1.82220670191117241219e-017
  -1.82219061502540410309e-017
  +1.82217452133397499246e-017
  -1.82215842651163488810e-017
  +1.82214233691975812973e-017
  -1.82212626037374747753e-017
  +1.82211015634256070999e-017
  -1.82209406152022060564e-017
  +1.82207797192834384726e-017
  -1.82206189538233319507e-017
  +1.82204579135114642753e-017
  -1.82202970686856398008e-017
  +1.82201361727668722171e-017
  -1.82199754277035532605e-017
  +1.82198145047237011841e-017
  -1.82196535912354235192e-017
  +1.82194924682256894277e-017
  -1.82193318264589728444e-017
  +1.82191708548095583594e-017
  -1.82190099960492948552e-017
  +1.82188488729385865678e-017
  -1.82186881278752676112e-017
  +1.82185273082929921039e-017
  -1.82183662914071378699e-017
  +1.82182051683974037784e-017
  -1.82180445266306871951e-017
  +1.82178836583788492792e-017
  -1.82177226962210092059e-017
  +1.82175615731103009184e-017
  -1.82174009314445585310e-017
  +1.82172400674336368416e-017
  -1.82170791034582612426e-017
  +1.82169183289104770926e-017
  -1.82167574335975546840e-017
</dep>
<dep _net1.Vt time>
  +3.00000000000000000000e+000
  +3.00000000000000000000e+000
  +3.00000000000000000000e+000
  +3.00000000000000000000e+000
  +3.00000000000000000000e+000
  +3.00000000000000000000e+000
  +3.00000000000000000000e+000
  +3.00000000000000000000e+000
  +3.00000000000000000000e+000
  +3.00000000000000000000e+000
  +3.00000000000000000000e+000
  +3.00000000000000000000e+000
  +3.00000000000000000000e+000
  +3.00000000000000000000e+000
  +3.00000000000000000000e+000
  +3.00000000000000000000e+000
  +3.00000000000000000000e+000
  +3.00000000000000000000e+000
  +3.00000000000000000000e+000
  +3.00000000000000000000e+000
  +3.00000000000000000000e+000
  +3.00000000000000000000e+000
  +3.00000000000000000000e+000
  +3.00000000000000000000e+000
  +3.00000000000000000000e+000
  +3.00000000000000000000e+000
  +3.00000000000000000000e+000
  +3.00000000000000000000e+000
  +3.00000000000000000000e+000
  +3.00000000000000000000e+000
  +3.00000000000000000000e+000
  +3.00000000000000000000e+000
  +3.00000000000000000000e+000
  +3.00000000000000000000e+000
  +3.00000000000000000000e+000
  +3.00000000000000000000e+000
  +3.00000000000000000000e+000
  +3.00000000000000000000e+000
  +3.00000000000000000000e+000
  +3.00000000000000000000e+000
  +3.00000000000000000000e+000
  +3.00000000000000000000e+000
  +3.00000000000000000000e+000
  +3.00000000000000000000e+000
  +3.00000000000000000000e+000
  +3.00000000000000000000e+000
  +3.00000000000000000000e+000
  +3.00000000000000000000e+000
  +3.00000000000000000000e+000
  +3.00000000000000000000e+000
  +3.00000000000000000000e+000
  +3.00000000000000000000e+000
  +3.00000000000000000000e+000
  +3.00000000000000000000e+000
  +3.00000000000000000000e+000
  +3.00000000000000000000e+000
  +3.00000000000000000000e+000
  +3.00000000000000000000e+000
  +3.00000000000000000000e+000
  +3.00000000000000000000e+000
  +3.00000000000000000000e+000
  +3.00000000000000000000e+000
  +3.00000000000000000000e+000
  +3.00000000000000000000e+000
  +3.00000000000000000000e+000
  +3.00000000000000000000e+000
  +3.00000000000000000000e+000
  +3.00000000000000000000e+000
  +3.00000000000000000000e+000
  +3.00000000000000000000e+000
  +3.00000000000000000000e+000
  +3.00000000000000000000e+000
  +3.00000000000000000000e+000
  +3.00000000000000000000e+000
  +3.00000000000000000000e+000
  +3.00000000000000000000e+000
  +3.00000000000000000000e+000
  +3.00000000000000000000e+000
  +3.00000000000000000000e+000
  +3.00000000000000000000e+000
  +3.00000000000000000000e+000
  +3.00000000000000000000e+000
  +3.00000000000000000000e+000
  +3.00000000000000000000e+000
  +3.00000000000000000000e+000
  +3.00000000000000000000e+000
  +3.00000000000000000000e+000
  +3.00000000000000000000e+000
  +3.00000000000000000000e+000
  +3.00000000000000000000e+000
  +3.00000000000000000000e+000
  +3.00000000000000000000e+000
  +3.00000000000000000000e+000
  +3.00000000000000000000e+000
  +3.00000000000000000000e+000
  +3.00000000000000000000e+000
  +3.00000000000000000000e+000
  +3.00000000000000000000e+000
  +3.00000000000000000000e+000
  +3.00000000000000000000e+000
</dep>
<dep _net2.Vt time>
  +1.38196598672141335307e+000
  +1.38196598672629322735e+000
  +1.38196598672466253177e+000
  +1.38196598672629344939e+000
  +1.38196598672466186564e+000
  +1.38196598672629344939e+000
  +1.38196598672466186564e+000
  +1.38196598672629344939e+000
  +1.38196598672466186564e+000
  +1.38196598672629344939e+000
  +1.38196598672466186564e+000
  +1.38196598672629344939e+000
  +1.38196598672466275382e+000
  +1.38196598672629322735e+000
  +1.38196598672466275382e+000
  +1.38196598672629322735e+000
  +1.38196598672466275382e+000
  +1.38196598672629322735e+000
  +1.38196598672466275382e+000
  +1.38196598672629322735e+000
  +1.38196598672466275382e+000
  +1.38196598672629322735e+000
  +1.38196598672466275382e+000
  +1.38196598672629322735e+000
  +1.38196598672466253177e+000
  +1.38196598672629256122e+000
  +1.38196598672466253177e+000
  +1.38196598672629256122e+000
  +1.38196598672466253177e+000
  +1.38196598672629256122e+000
  +1.38196598672466253177e+000
  +1.38196598672629256122e+000
  +1.38196598672466253177e+000
  +1.38196598672629256122e+000
  +1.38196598672466253177e+000
  +1.38196598672629256122e+000
  +1.38196598672466253177e+000
  +1.38196598672629256122e+000
  +1.38196598672466275382e+000
  +1.38196598672629344939e+000
  +1.38196598672466253177e+000
  +1.38196598672629256122e+000
  +1.38196598672466319790e+000
  +1.38196598672629256122e+000
  +1.38196598672466230973e+000
  +1.38196598672629256122e+000
  +1.38196598672466253177e+000
  +1.38196598672629256122e+000
  +1.38196598672466275382e+000
  +1.38196598672629256122e+000
  +1.38196598672466275382e+000
  +1.38196598672629256122e+000
  +1.38196598672466275382e+000
  +1.38196598672629256122e+000
  +1.38196598672466275382e+000
  +1.38196598672629256122e+000
  +1.38196598672466275382e+000
  +1.38196598672629256122e+000
  +1.38196598672466275382e+000
  +1.38196598672629256122e+000
  +1.38196598672466275382e+000
  +1.38196598672629256122e+000
  +1.38196598672466275382e+000
  +1.38196598672629256122e+000
  +1.38196598672466275382e+000
  +1.38196598672629256122e+000
  +1.38196598672466275382e+000
  +1.38196598672629256122e+000
  +1.38196598672466275382e+000
  +1.38196598672629256122e+000
  +1.38196598672466275382e+000
  +1.38196598672629256122e+000
  +1.38196598672466275382e+000
  +1.38196598672629256122e+000
  +1.38196598672466275382e+000
  +1.38196598672629256122e+000
  +1.38196598672466275382e+000
  +1.38196598672629256122e+000
  +1.38196598672466275382e+000
  +1.38196598672629256122e+000
  +1.38196598672466275382e+000
  +1.38196598672629256122e+000
  +1.38196598672466275382e+000
  +1.38196598672629256122e+000
  +1.38196598672466275382e+000
  +1.38196598672629256122e+000
  +1.38196598672466275382e+000
  +1.38196598672629256122e+000
  +1.38196598672466275382e+000
  +1.38196598672629256122e+000
  +1.38196598672466275382e+000
  +1.38196598672629256122e+000
  +1.38196598672466275382e+000
  +1.38196598672629256122e+000
  +1.38196598672466275382e+000
  +1.38196598672629256122e+000
  +1.38196598672466364199e+000
  +1.38196598672629256122e+000
  +1.38196598672466364199e+000
  +1.38196598672629256122e+000
</dep>
<dep _net0.Vt time>
  +5.00000000000000000000e+000
  +5.00000000000000000000e+000
  +5.00000000000000000000e+000
  +5.00000000000000000000e+000
  +5.00000000000000000000e+000
  +5.00000000000000000000e+000
  +5.00000000000000000000e+000
  +5.00000000000000000000e+000
  +5.00000000000000000000e+000
  +5.00000000000000000000e+000
  +5.00000000000000000000e+000
  +5.00000000000000000000e+000
  +5.00000000000000000000e+000
  +5.00000000000000000000e+000
  +5.00000000000000000000e+000
  +5.00000000000000000000e+000
  +5.00000000000000000000e+000
  +5.00000000000000000000e+000
  +5.00000000000000000000e+000
  +5.00000000000000000000e+000
  +5.00000000000000000000e+000
  +5.00000000000000000000e+000
  +5.00000000000000000000e+000
  +5.00000000000000000000e+000
  +5.00000000000000000000e+000
  +5.00000000000000000000e+000
  +5.00000000000000000000e+000
  +5.00000000000000000000e+000
  +5.00000000000000000000e+000
  +5.00000000000000000000e+000
  +5.00000000000000000000e+000
  +5.00000000000000000000e+000
  +5.00000000000000000000e+000
  +5.00000000000000000000e+000
  +5.00000000000000000000e+000
  +5.00000000000000000000e+000
  +5.00000000000000000000e+000
  +5.00000000000000000000e+000
