<Qucs Dataset 0.0.19>
<indep time 11>
  +0.00000000000000000000e+000
  +2.00000000000000000000e+000
  +4.00000000000000000000e+000
  +6.00000000000000000000e+000
  +8.00000000000000000000e+000
  +1.00000000000000000000e+001
  +1.20000000000000000000e+001
  +1.40000000000000000000e+001
  +1.60000000000000000000e+001
  +1.80000000000000000000e+001
  +2.00000000000000000000e+001
</indep>
<dep V1.It time>
  -1.20000004761803706664e-004
  -1.20000004761803706664e-004
  -1.20000004761803706664e-004
  -1.20000004761803706664e-004
  -1.20000004761803706664e-004
  -1.20000004761803706664e-004
  -1.20000004761803706664e-004
  -1.20000004761803706664e-004
  -1.20000004761803706664e-004
  -1.20000004761803706664e-004
  -1.20000004761803706664e-004
</dep>
<dep Pr1.It time>
  +1.20000000000000016593e-004
  +1.20000000000000016593e-004
  +1.20000000000000016593e-004
  +1.19999999999999989488e-004
  +1.20000000000000030145e-004
  +1.19999999999999989488e-004
  +1.20000000000000030145e-004
  +1.19999999999999989488e-004
  +1.20000000000000030145e-004
  +1.20000000000000030145e-004
  +1.20000000000000030145e-004
</dep>
<dep _net1.Vt time>
  +0.00000000000000000000e+000
  +0.00000000000000000000e+000
  +0.00000000000000000000e+000
  +2.13778223826983179689e-031
  +0.00000000000000000000e+000
  +2.13778223826983179689e-031
  +0.00000000000000000000e+000
  +2.13778223826983179689e-031
  +0.00000000000000000000e+000
  +0.00000000000000000000e+000
  +0.00000000000000000000e+000
</dep>
<dep _net2.Vt time>
  +1.19999999952381966040e+001
  +1.19999999952381966040e+001
  +1.19999999952381966040e+001
  +1.19999999952381966040e+001
  +1.19999999952381966040e+001
  +1.19999999952381966040e+001
  +1.19999999952381966040e+001
  +1.19999999952381966040e+001
  +1.19999999952381966040e+001
  +1.19999999952381966040e+001
  +1.19999999952381966040e+001
</dep>
<dep _net0.Vt time>
  +1.20000000000000000000e+001
  +1.20000000000000000000e+001
  +1.20000000000000000000e+001
  +1.20000000000000000000e+001
  +1.20000000000000000000e+001
  +1.20000000000000000000e+001
  +1.20000000000000000000e+001
  +1.20000000000000000000e+001
  +1.20000000000000000000e+001
  +1.20000000000000000000e+001
  +1.20000000000000000000e+001
</dep>
