<Qucs Dataset 0.0.19>
<indep time 30>
  +0.00000000000000000000e+000
  +6.89655172413793093877e-002
  +1.37931034482758618775e-001
  +2.06896551724137928163e-001
  +2.75862068965517237551e-001
  +3.44827586206896574694e-001
  +4.13793103448275856326e-001
  +4.82758620689655193470e-001
  +5.51724137931034475102e-001
  +6.20689655172413812245e-001
  +6.89655172413793149389e-001
  +7.58620689655172375510e-001
  +8.27586206896551712653e-001
  +8.96551724137931049796e-001
  +9.65517241379310386939e-001
  +1.03448275862068972408e+000
  +1.10344827586206895020e+000
  +1.17241379310344817632e+000
  +1.24137931034482762449e+000
  +1.31034482758620685061e+000
  +1.37931034482758629878e+000
  +1.44827586206896552490e+000
  +1.51724137931034475102e+000
  +1.58620689655172419918e+000
  +1.65517241379310342531e+000
  +1.72413793103448265143e+000
  +1.79310344827586209959e+000
  +1.86206896551724132571e+000
  +1.93103448275862077388e+000
  +2.00000000000000000000e+000
</indep>
<dep Pr2.Vt time>
  +0.00000000000000000000e+000
  +7.08342470952361275005e-002
  +5.01749056154896858062e-002
  +3.55410166234774727023e-002
  +2.51752115352329788878e-002
  +1.78326715456153112038e-002
  +1.26316386263030187159e-002
  +8.94752611673276833371e-003
  +6.33791275843727675704e-003
  +4.48941278399195547316e-003
  +3.18004174453798008418e-003
  +2.25255862705769178619e-003
  +1.59558294385510422014e-003
  +1.13021916505976708495e-003
  +8.00582236096149778282e-004
  +5.67086399316913368496e-004
  +4.01691381335620063559e-004
  +2.84535065615540492916e-004
  +2.01548271450703998624e-004
  +1.42765200615568990184e-004
  +1.01126654970041588680e-004
  +7.16323046606262027729e-005
  +5.07402036833203375944e-005
  +3.59414412536691898451e-005
  +2.54588493072132069977e-005
  +1.80335842258752123237e-005
  +1.27739536106839698644e-005
  +9.04833386442271969414e-006
  +6.40931916752710982479e-006
  +4.53999297624848609494e-006
</dep>
<dep Pr1.It time>
  +0.00000000000000000000e+000
  +1.64611260624126392628e-003
  +4.56007500624998601130e-003
  +7.10804258174028719824e-003
  +8.75655279703741080966e-003
  +9.48325295771190214522e-003
  +9.46715436827672875142e-003
  +8.93519047197566251839e-003
  +8.09423020470840734464e-003
  +7.10684987923025212470e-003
  +6.08822544396259504595e-003
  +5.11298446065058809218e-003
  +4.22424839314990488437e-003
  +3.44247219619351826903e-003
  +2.77290376874744304639e-003
  +2.21133023396993984300e-003
  +1.74823517078760313700e-003
  +1.37164582942346166550e-003
  +1.06897569751062478279e-003
  +8.28136740485465412329e-004
  +6.38144645337358523869e-004
  +4.89387825408546181527e-004
  +3.73684761012303570758e-004
  +2.84216991449258958580e-004
  +2.15396644819232428811e-004
  +1.62706593649442711252e-004
  +1.22536640878460455911e-004
  +9.20291161435529009045e-005
  +6.89406539265955721485e-005
  +5.15227422358583727171e-005
</dep>
<dep V1.It time>
  +0.00000000000000000000e+000
  -4.06229837508302743521e-002
  -4.64149903814283226744e-002
  -3.80064527340030974822e-002
  -2.56820138992842131320e-002
  -1.40906083919862794990e-002
  -4.94559223259681719764e-003
  +1.47153207098147547661e-003
  +5.49654663226084323063e-003
  +7.66407970090306894795e-003
  +8.50649142030325544628e-003
  +8.47439418427905349906e-003
  +7.91510799146561208617e-003
  +7.07864076677747460636e-003
  +6.13443392300363175840e-003
  +5.19016819496430793085e-003
  +4.30879996691283309596e-003
  +3.52246500224580273361e-003
  +2.84310180039238540387e-003
  +2.27017774379261773332e-003
  +1.79607457356459354093e-003
  +1.40968943717688453138e-003
  +1.09873388236138248494e-003
  +8.51117621003375976994e-004
  +6.55711502098795060572e-004
  +5.02705106301294690242e-004
  +3.83711358002601480872e-004
  +2.91722636665513559203e-004
  +2.20987737897828171027e-004
  +1.66854052481262932163e-004
</dep>
<dep _net4.Vt time>
  +0.00000000000000000000e+000
  +7.08342470952361275005e-002
  +5.01749056154896858062e-002
  +3.55410166234774727023e-002
  +2.51752115352329788878e-002
  +1.78326715456153112038e-002
  +1.26316386263030187159e-002
  +8.94752611673276833371e-003
  +6.33791275843727675704e-003
  +4.48941278399195547316e-003
  +3.18004174453798008418e-003
  +2.25255862705769178619e-003
  +1.59558294385510422014e-003
  +1.13021916505976708495e-003
  +8.00582236096149778282e-004
  +5.67086399316913368496e-004
  +4.01691381335620063559e-004
  +2.84535065615540492916e-004
  +2.01548271450703998624e-004
  +1.42765200615568990184e-004
  +1.01126654970041588680e-004
  +7.16323046606262027729e-005
  +5.07402036833203375944e-005
  +3.59414412536691898451e-005
  +2.54588493072132069977e-005
  +1.80335842258752123237e-005
  +1.27739536106839698644e-005
  +9.04833386442271969414e-006
  +6.40931916752710982479e-006
  +4.53999297624848609494e-006
</dep>
<dep _net0.Vt time>
  +0.00000000000000000000e+000
  +7.08342470952361275005e-002
  +5.01749056154896858062e-002
  +3.55410166234774727023e-002
  +2.51752115352329788878e-002
  +1.78326715456153112038e-002
  +1.26316386263030187159e-002
  +8.94752611673276833371e-003
  +6.33791275843727675704e-003
  +4.48941278399195547316e-003
  +3.18004174453798008418e-003
  +2.25255862705769178619e-003
  +1.59558294385510422014e-003
  +1.13021916505976708495e-003
  +8.00582236096149778282e-004
  +5.67086399316913368496e-004
  +4.01691381335620063559e-004
  +2.84535065615540492916e-004
  +2.01548271450703998624e-004
  +1.42765200615568990184e-004
  +1.01126654970041588680e-004
  +7.16323046606262027729e-005
  +5.07402036833203375944e-005
  +3.59414412536691898451e-005
  +2.54588493072132069977e-005
  +1.80335842258752123237e-005
  +1.27739536106839698644e-005
  +9.04833386442271969414e-006
  +6.40931916752710982479e-006
  +4.53999297624848609494e-006
</dep>
<dep _net3.Vt time>
  +0.00000000000000000000e+000
  +0.00000000000000000000e+000
  +0.00000000000000000000e+000
  +0.00000000000000000000e+000
  +0.00000000000000000000e+000
  +0.00000000000000000000e+000
  +0.00000000000000000000e+000
  +0.00000000000000000000e+000
  +0.00000000000000000000e+000
  +0.00000000000000000000e+000
  +0.00000000000000000000e+000
  +0.00000000000000000000e+000
  +0.00000000000000000000e+000
  +0.00000000000000000000e+000
  +0.00000000000000000000e+000
  +0.00000000000000000000e+000
  +0.00000000000000000000e+000
  +0.00000000000000000000e+000
  +0.00000000000000000000e+000
  +0.00000000000000000000e+000
  +0.00000000000000000000e+000
  +0.00000000000000000000e+000
  +0.00000000000000000000e+000
  +0.00000000000000000000e+000
  +0.00000000000000000000e+000
  +0.00000000000000000000e+000
  +0.00000000000000000000e+000
  +0.00000000000000000000e+000
  +0.00000000000000000000e+000
  +0.00000000000000000000e+000
</dep>
<dep _net2.Vt time>
  +0.00000000000000000000e+000
  +3.29222521248252785256e-003
  +9.12015001249997202259e-003
  +1.42160851634805743965e-002
  +1.75131055940748216193e-002
  +1.89665059154238042904e-002
  +1.89343087365534575028e-002
  +1.78703809439513250368e-002
  +1.61884604094168146893e-002
  +1.42136997584605042494e-002
  +1.21764508879251900919e-002
  +1.02259689213011761844e-002
  +8.44849678629980976874e-003
  +6.88494439238703653805e-003
  +5.54580753749488609278e-003
  +4.42266046793987968599e-003
  +3.49647034157520627401e-003
  +2.74329165884692333099e-003
  +2.13795139502124956557e-003
  +1.65627348097093082466e-003
  +1.27628929067471704774e-003
  +9.78775650817092363054e-004
  +7.47369522024607141515e-004
  +5.68433982898517917159e-004
  +4.30793289638464857623e-004
  +3.25413187298885422504e-004
  +2.45073281756920911822e-004
  +1.84058232287105801809e-004
  +1.37881307853191144297e-004
  +1.03045484471716745434e-004
</dep>
<dep _net1.Vt time>
  +0.00000000000000000000e+000
  +4.39152089633128017709e-002
  +5.55351403939282964317e-002
  +5.22225378974836701440e-002
  +4.31951194933590382208e-002
  +3.30571143074100820547e-002
  +2.38799009691502764352e-002
  +1.63988488729698497770e-002
  +1.06919137771559723260e-002
  +6.54962005755743530144e-003
  +3.66995946762193464563e-003
  +1.75157473702212268529e-003
  +5.33388794834197682571e-004
  -1.93696374390438068314e-004
  -5.88626385508745665620e-004
  -7.67507727024428244855e-004
  -8.12329625337626821946e-004
  -7.79173343398879402616e-004
  -7.05150405371135838295e-004
  -6.13904262821686908663e-004
  -5.19785282889876493195e-004
  -4.30913786359792168323e-004
  -3.51364360336775343428e-004
  -2.82683638104858059835e-004
  -2.24918212460330202949e-004
  -1.77291919002409267738e-004
  -1.38638076245680569049e-004
  -1.07664404378407757394e-004
  -8.31064300446370267297e-005
  -6.38085680095461867285e-005
</dep>
<indep Pr2.V 1>
  +0.00000000000000000000e+000
</indep>
<indep Pr1.I 1>
  +0.00000000000000000000e+000
</indep>
<indep V1.I 1>
  +0.00000000000000000000e+000
</indep>
<indep _net4.V 1>
  +0.00000000000000000000e+000
</indep>
<indep _net0.V 1>
  +0.00000000000000000000e+000
</indep>
<indep _net3.V 1>
  +0.00000000000000000000e+000
</indep>
<indep _net2.V 1>
  +0.00000000000000000000e+000
</indep>
<indep _net1.V 1>
  +0.00000000000000000000e+000
</indep>
