<Qucs Dataset 0.0.19>
<indep time 50>
  +0.00000000000000000000e+000
  +6.12244897959183667372e-007
  +1.22448979591836733474e-006
  +1.83673469387755079036e-006
  +2.44897959183673466949e-006
  +3.06122448979591812510e-006
  +3.67346938775510158072e-006
  +4.28571428571428545985e-006
  +4.89795918367346933898e-006
  +5.51020408163265237107e-006
  +6.12244897959183625020e-006
  +6.73469387755102012934e-006
  +7.34693877551020316143e-006
  +7.95918367346938788760e-006
  +8.57142857142857091969e-006
  +9.18367346938775395179e-006
  +9.79591836734693867795e-006
  +1.04081632653061217101e-005
  +1.10204081632653047421e-005
  +1.16326530612244894683e-005
  +1.22448979591836725004e-005
  +1.28571428571428555325e-005
  +1.34693877551020402587e-005
  +1.40816326530612232908e-005
  +1.46938775510204063229e-005
  +1.53061224489795910490e-005
  +1.59183673469387757752e-005
  +1.65306122448979571132e-005
  +1.71428571428571418394e-005
  +1.77551020408163265656e-005
  +1.83673469387755079036e-005
  +1.89795918367346926297e-005
  +1.95918367346938773559e-005
  +2.02040816326530586939e-005
  +2.08163265306122434201e-005
  +2.14285714285714281463e-005
  +2.20408163265306094843e-005
  +2.26530612244897942105e-005
  +2.32653061224489789366e-005
  +2.38775510204081602747e-005
  +2.44897959183673450008e-005
  +2.51020408163265297270e-005
  +2.57142857142857110650e-005
  +2.63265306122448957912e-005
  +2.69387755102040805173e-005
  +2.75510204081632618554e-005
  +2.81632653061224465815e-005
  +2.87755102040816313077e-005
  +2.93877551020408126457e-005
  +2.99999999999999973719e-005
</indep>
<dep Pr2.Vt time>
  +8.00000000000000000000e+001
  +8.00000000000000142109e+001
  +8.00000000000000142109e+001
  +8.00000000000000142109e+001
  +8.00000000000000426326e+001
  +8.00000000000000284217e+001
  +8.00000000000000284217e+001
  +8.00000000000000426326e+001
  +8.00000000000000710543e+001
  +7.28277340516483775446e+001
  +6.42729822229661209576e+001
  +5.67231196875711773941e+001
  +5.00601064938686661776e+001
  +4.41797683272704446722e+001
  +3.89901677744403514225e+001
  +3.44101669080081649099e+001
  +3.03681587181715855195e+001
  +2.68009475574818516463e+001
  +2.36527610948848696637e+001
  +2.08743783312016049081e+001
  +1.84223600428171465637e+001
  +1.62583696217848476806e+001
  +1.43485736938739805169e+001
  +1.26631131433947299314e+001
  +1.11756362744240647089e+001
  +9.86288680954122121136e+000
  +8.70434028455039054961e+000
  +7.68188315432553814333e+000
  +6.77952959268853305730e+000
  +5.98317155856741500486e+000
  +5.28035822079021777142e+000
  +4.66010129288383101454e+000
  +4.11270323434296436460e+000
  +3.62960563234483091222e+000
  +3.20325539340087583895e+000
  +2.82698665289020478752e+000
  +2.49491655616370255899e+000
  +2.20185328178621064765e+000
  +1.94321486888632488643e+000
  +1.71495757950244276380e+000
  +1.51351267589083016141e+000
  +1.33573062432688072221e+000
  +1.17883185304188664588e+000
  +1.04036329440965280568e+000
  +9.18160031932466536020e-001
  +8.10311452387914243900e-001
  +7.15131373935025904665e-001
  +6.31131683141177513008e-001
  +5.56999068752183745801e-001
  +4.91574488444685209210e-001
</dep>
<dep V1.It time>
  -8.00001907361968729212e-011
  -7.99999697800292851116e-011
  -7.99999625116395647225e-011
  -7.99999677564675741211e-011
  -7.99999597740290791966e-011
  -7.99999574158893540406e-011
  -7.99999574158893540406e-011
  -7.99999811870219857853e-011
  -7.99999720932762640631e-011
  -2.20350670622235060485e-011
  -2.88439506288351058337e-011
  -3.48530244134275281420e-011
  -4.01562385740778593533e-011
  -4.48365073545728729803e-011
  -4.89670054250100868826e-011
  -5.26123119469322439077e-011
  -5.58294202501338505471e-011
  -5.86686289071543719207e-011
  -6.11743281371351180761e-011
  -6.33856938342636975400e-011
  -6.53373000717276189048e-011
  -6.70596596575044422586e-011
  -6.85797011934301367410e-011
  -6.99211900962238055127e-011
  -7.11051001630116973450e-011
  -7.21499414906759937695e-011
  -7.30720498759498369524e-011
  -7.38858422209493961087e-011
  -7.46040419373343348202e-011
  -7.52378778732274299836e-011
  -7.57972598730585182574e-011
  -7.62909337151609621410e-011
  -7.67266178495268660634e-011
  -7.71111240735748673964e-011
  -7.74504640326643779257e-011
  -7.77499432104592553963e-011
  -7.80142438786543405725e-011
  -7.82474983029611076536e-011
  -7.84533533499052068824e-011
  -7.86350275045468969067e-011
  -7.87953611905785415530e-011
  -7.89368611795406682511e-011
  -7.90617397834812280166e-011
  -7.91719494438249244667e-011
  -7.92692132572388169841e-011
  -7.93550519157585414116e-011
  -7.94308074823751930728e-011
  -7.94976643738082234265e-011
  -7.95566678785236772286e-011
  -7.96087404995218284170e-011
</dep>
<dep Pr1.It time>
  +1.83700270435776386035e-020
  -1.23402112503110880648e-019
  -6.64920863594625766169e-020
  -2.08581863261371458496e-019
  -3.30925184580414463720e-019
  -3.37542629480838685119e-019
  -3.37542629480838685119e-019
  -4.99378861965613443652e-019
  -7.83611355328634601181e-019
  -1.48628011138718759332e-004
  -1.31169328518012263257e-004
  -1.15761441009987051847e-004
  -1.02163450679465200410e-004
  -9.01627568184331810780e-005
  -7.95717319945043181266e-005
  -7.02247885494040614265e-005
  -6.19757896830544095703e-005
  -5.46957646463621554363e-005
  -4.82708923201998504979e-005
  -4.26007216546529991047e-005
  -3.75966011454476674736e-005
  -3.31802927928929284620e-005
  -2.92827488730410952461e-005
  -2.58430323961853332859e-005
  -2.28073643743576182563e-005
  -2.01282830021721094850e-005
  -1.77639016050022447183e-005
  -1.56772537527493757334e-005
  -1.38357153002286255874e-005
  -1.22104943179484311060e-005
  -1.07761809384873898961e-005
  -9.51035008044796163534e-006
  -8.39321083869835843176e-006
  -7.40729705919692989343e-006
  -6.53719426065264629333e-006
  -5.76929863349456685751e-006
  -5.09160434818044065742e-006
  -4.49351584747312278814e-006
  -3.96568218791532568442e-006
  -3.49985084049336124098e-006
  -3.08873866469360164409e-006
  -2.72591803867551303375e-006
  -2.40571636523118882273e-006
  -2.12312738234572164530e-006
  -1.87373289171279721932e-006
  -1.65363368146458659023e-006
  -1.45938856310218761229e-006
  -1.28796056949397775590e-006
  -1.13666947275862967076e-006
  -1.00314987966507329376e-006
</dep>
<dep _net2.Vt time>
  +8.00000000000000000000e+001
  +8.00000000000000000000e+001
  +8.00000000000000000000e+001
  +8.00000000000000000000e+001
  +8.00000000000000000000e+001
  +8.00000000000000000000e+001
  +8.00000000000000000000e+001
  +8.00000000000000000000e+001
  +8.00000000000000000000e+001
  +5.79649329377764956917e+001
  +5.11560493711648973658e+001
  +4.51469755865724735600e+001
  +3.98437614259221462021e+001
  +3.51634926454271337093e+001
  +3.10329945749899138718e+001
  +2.73876880530677588865e+001
  +2.41705797498661496547e+001
  +2.13313710928456359284e+001
  +1.88256718628648833658e+001
  +1.66143061657363020345e+001
  +1.46626999282723815554e+001
  +1.29403403424955563139e+001
  +1.14202988065698711750e+001
  +1.00788099037761966770e+001
  +8.89489983698830322112e+000
  +7.85005850932401116893e+000
  +6.92795012405016752410e+000
  +6.11415777905060142672e+000
  +5.39595806266567112885e+000
  +4.76212212677257262783e+000
  +4.20274012694147813818e+000
  +3.70906628483903499927e+000
  +3.27338215047312930395e+000
  +2.88887592642513801877e+000
  +2.54953596733561171916e+000
  +2.25005678954074817000e+000
  +1.98575612134565826494e+000
  +1.75250169703889846495e+000
  +1.54664665009479262991e+000
  +1.36497249545310661567e+000
  +1.20463880942146994713e+000
  +1.06313882045932950327e+000
  +9.38260216518767675709e-001
  +8.28050556175080498811e-001
  +7.30786742761186935979e-001
  +6.44948084241455554810e-001
  +5.69192517624807159393e-001
  +5.02335626191779849314e-001
  +4.43332121476320784037e-001
  +3.91259500478177923988e-001
</dep>
<dep _net4.Vt time>
  +3.11999878320047435731e-005
  +3.11999878320047435731e-005
  +3.11999878320047435731e-005
  +3.11999878320047435731e-005
  +3.11999878320047435731e-005
  +3.11999878320047435731e-005
  +3.11999878320047435731e-005
  +3.11999878320047435731e-005
  +3.11999878320047435731e-005
  +5.79649329377764956917e+001
  +5.11560493711648973658e+001
  +4.51469755865724735600e+001
  +3.98437614259221462021e+001
  +3.51634926454271337093e+001
  +3.10329945749899138718e+001
  +2.73876880530677588865e+001
  +2.41705797498661496547e+001
  +2.13313710928456359284e+001
  +1.88256718628648833658e+001
  +1.66143061657363020345e+001
  +1.46626999282723815554e+001
  +1.29403403424955563139e+001
  +1.14202988065698711750e+001
  +1.00788099037761966770e+001
  +8.89489983698830322112e+000
  +7.85005850932401116893e+000
  +6.92795012405016752410e+000
  +6.11415777905060142672e+000
  +5.39595806266567112885e+000
  +4.76212212677257262783e+000
  +4.20274012694147813818e+000
  +3.70906628483903499927e+000
  +3.27338215047312930395e+000
  +2.88887592642513801877e+000
  +2.54953596733561171916e+000
  +2.25005678954074817000e+000
  +1.98575612134565826494e+000
  +1.75250169703889846495e+000
  +1.54664665009479262991e+000
  +1.36497249545310661567e+000
  +1.20463880942146994713e+000
  +1.06313882045932950327e+000
  +9.38260216518767675709e-001
  +8.28050556175080498811e-001
  +7.30786742761186935979e-001
  +6.44948084241455554810e-001
  +5.69192517624807159393e-001
  +5.02335626191779849314e-001
  +4.43332121476320784037e-001
  +3.91259500478177923988e-001
</dep>
<dep _net0.Vt time>
  +8.00000000000000000000e+001
  +8.00000000000000000000e+001
  +8.00000000000000000000e+001
  +8.00000000000000000000e+001
  +8.00000000000000000000e+001
  +8.00000000000000000000e+001
  +8.00000000000000000000e+001
  +8.00000000000000000000e+001
  +8.00000000000000000000e+001
  +8.00000000000000000000e+001
  +8.00000000000000000000e+001
  +8.00000000000000000000e+001
  +8.00000000000000000000e+001
  +8.00000000000000000000e+001
  +8.00000000000000000000e+001
  +8.00000000000000000000e+001
  +8.00000000000000000000e+001
  +8.00000000000000000000e+001
  +8.00000000000000000000e+001
  +8.00000000000000000000e+001
  +8.00000000000000000000e+001
  +8.00000000000000000000e+001
  +8.00000000000000000000e+001
  +8.00000000000000000000e+001
  +8.00000000000000000000e+001
  +8.00000000000000000000e+001
  +8.00000000000000000000e+001
  +8.00000000000000000000e+001
  +8.00000000000000000000e+001
  +8.00000000000000000000e+001
  +8.00000000000000000000e+001
  +8.00000000000000000000e+001
  +8.00000000000000000000e+001
  +8.00000000000000000000e+001
  +8.00000000000000000000e+001
  +8.00000000000000000000e+001
  +8.00000000000000000000e+001
  +8.00000000000000000000e+001
  +8.00000000000000000000e+001
  +8.00000000000000000000e+001
  +8.00000000000000000000e+001
  +8.00000000000000000000e+001
  +8.00000000000000000000e+001
  +8.00000000000000000000e+001
  +8.00000000000000000000e+001
  +8.00000000000000000000e+001
  +8.00000000000000000000e+001
  +8.00000000000000000000e+001
  +8.00000000000000000000e+001
  +8.00000000000000000000e+001
</dep>
<dep _net3.Vt time>
  +0.00000000000000000000e+000
  -1.24344978758017532527e-014
  -8.88178419700125232339e-015
  -1.42108547152020037174e-014
  -3.90798504668055102229e-014
  -3.55271367880050092936e-014
  -3.55271367880050092936e-014
  -4.79616346638067625463e-014
  -7.63833440942107699811e-014
  -1.48628011138718800765e+001
  -1.31169328518012218154e+001
  -1.15761441009987020578e+001
  -1.02163450679465199755e+001
  -9.01627568184331273926e+000
  -7.95717319945043399798e+000
  -7.02247885494040602339e+000
  -6.19757896830543764111e+000
  -5.46957646463621482980e+000
  -4.82708923201998540975e+000
  -4.26007216546530198542e+000
  -3.75966011454476634057e+000
  -3.31802927928929269896e+000
  -2.92827488730410889772e+000
  -2.58430323961853325443e+000
  -2.28073643743576148779e+000
  -2.01282830021721004243e+000
  -1.77639016050022346960e+000
  -1.56772537527493716070e+000
  -1.38357153002286192844e+000
  -1.22104943179484259907e+000
  -1.07761809384873941120e+000
  -9.51035008044796237314e-001
  -8.39321083869835282698e-001
  -7.40729705919692782423e-001
  -6.53719426065264341830e-001
  -5.76929863349456506505e-001
  -5.09160434818044183025e-001
  -4.49351584747312182699e-001
  -3.96568218791532367540e-001
  -3.49985084049336203638e-001
  -3.08873866469360158771e-001
  -2.72591803867551274454e-001
  -2.40571636523118859152e-001
  -2.12312738234572251361e-001
  -1.87373289171279655552e-001
  -1.65363368146458633579e-001
  -1.45938856310218717516e-001
  -1.28796056949397719205e-001
  -1.13666947275863003397e-001
  -1.00314987966507285222e-001
</dep>
<dep _net1.Vt time>
  +0.00000000000000000000e+000
  +0.00000000000000000000e+000
  +0.00000000000000000000e+000
  +0.00000000000000000000e+000
  +0.00000000000000000000e+000
  +0.00000000000000000000e+000
  +0.00000000000000000000e+000
  +0.00000000000000000000e+000
  +0.00000000000000000000e+000
  +0.00000000000000000000e+000
  +0.00000000000000000000e+000
  +0.00000000000000000000e+000
  +0.00000000000000000000e+000
  +0.00000000000000000000e+000
  +0.00000000000000000000e+000
  +0.00000000000000000000e+000
  +0.00000000000000000000e+000
  +0.00000000000000000000e+000
  +0.00000000000000000000e+000
  +0.00000000000000000000e+000
  +0.00000000000000000000e+000
  +0.00000000000000000000e+000
  +0.00000000000000000000e+000
  +0.00000000000000000000e+000
  +0.00000000000000000000e+000
  +0.00000000000000000000e+000
  +0.00000000000000000000e+000
  +0.00000000000000000000e+000
  +0.00000000000000000000e+000
  +0.00000000000000000000e+000
  +0.00000000000000000000e+000
  +0.00000000000000000000e+000
  +0.00000000000000000000e+000
  +0.00000000000000000000e+000
  +0.00000000000000000000e+000
  +0.00000000000000000000e+000
  +0.00000000000000000000e+000
  +0.00000000000000000000e+000
  +0.00000000000000000000e+000
  +0.00000000000000000000e+000
  +0.00000000000000000000e+000
  +0.00000000000000000000e+000
  +0.00000000000000000000e+000
  +0.00000000000000000000e+000
  +0.00000000000000000000e+000
  +0.00000000000000000000e+000
  +0.00000000000000000000e+000
  +0.00000000000000000000e+000
  +0.00000000000000000000e+000
  +0.00000000000000000000e+000
</dep>
<indep Pr2.V 1>
  +8.00000000000000000000e+001
</indep>
<indep V1.I 1>
  -7.99999688000121651384e-011
</indep>
<indep Pr1.I 1>
  +0.00000000000000000000e+000
</indep>
<indep _net2.V 1>
  +8.00000000000000000000e+001
</indep>
<indep _net4.V 1>
  +3.11999878320047435731e-005
</indep>
<indep _net0.V 1>
  +8.00000000000000000000e+001
</indep>
<indep _net3.V 1>
  +0.00000000000000000000e+000
</indep>
<indep _net1.V 1>
  +0.00000000000000000000e+000
</indep>
